
T2744 000:315 SEGGER J-Link V5.10h Log File (0001ms, 0268ms total)
T2744 000:315 DLL Compiled: Jan 21 2016 19:24:29 (0001ms, 0268ms total)
T2744 000:315 Logging started @ 2020-12-02 16:56 (0001ms, 0268ms total)
T2744 000:316 JLINK_SetWarnOutHandler(...) (0000ms, 0268ms total)
T2744 000:316 JLINK_OpenEx(...)
Firmware: J-Link ARM-OB STM32 compiled Aug 22 2012 19:52:04
Hardware: V7.00
S/N: 20160506
Feature(s): RDI,FlashDL,FlashBP,JFlash,GDBFull  returns O.K. (0263ms, 0531ms total)
T2744 000:579 JLINK_SetErrorOutHandler(...) (0000ms, 0531ms total)
T2744 000:579 JLINK_ExecCommand("ProjectFile = "D:\¼¤¹â²â¾à\LaserRangefinder_V6\Code\LaserRanging_V2.1\USER\JLinkSettings.ini"", ...)  returns 0x00 (0000ms, 0531ms total)
T2744 000:586 JLINK_ExecCommand("Device = STM32F103C8", ...)Device "STM32F103C8" selected.  returns 0x00 (0011ms, 0542ms total)
T2744 000:597 JLINK_ExecCommand("DisableConnectionTimeout", ...)  returns 0x01 (0000ms, 0542ms total)
T2744 000:597 JLINK_GetHardwareVersion()  returns 0x11170 (0000ms, 0542ms total)
T2744 000:597 JLINK_GetDLLVersion()  returns 51008 (0000ms, 0542ms total)
T2744 000:597 JLINK_GetFirmwareString(...) (0000ms, 0542ms total)
T2744 000:622 JLINK_GetDLLVersion()  returns 51008 (0000ms, 0542ms total)
T2744 000:622 JLINK_GetCompileDateTime() (0000ms, 0542ms total)
T2744 000:626 JLINK_GetFirmwareString(...) (0000ms, 0542ms total)
T2744 000:631 JLINK_GetHardwareVersion()  returns 0x11170 (0000ms, 0542ms total)
T2744 000:649 JLINK_TIF_Select(JLINKARM_TIF_SWD)  returns 0x00 (0000ms, 0543ms total)
T2744 000:649 JLINK_SetSpeed(5000) (0000ms, 0543ms total)
T2744 000:649 JLINK_GetId() >0x108 TIF>Found SWD-DP with ID 0x1BA01477 >0x0D TIF> >0x28 TIF> >0x0D TIF> >0x28 TIF> >0x0D TIF> >0x28 TIF> >0x0D TIF> >0x28 TIF> >0x0D TIF> >0x21 TIF> >0x0D TIF> >0x28 TIF> >0x0D TIF> >0x28 TIF> >0x0D TIF> >0x28 TIF> >0x0D TIF> >0x21 TIF> >0x0D TIF> >0x21 TIF> >0x0D TIF> >0x28 TIF> >0x0D TIF> >0x21 TIF> >0x0D TIF> >0x21 TIF> >0x0D TIF> >0x28 TIF> >0x0D TIF> >0x28 TIF> >0x0D TIF> >0x28 TIF> >0x0D TIF> >0x21 TIF> >0x0D TIF> >0x21 TIF> >0x0D TIF> >0x28 TIF> >0x0D TIF>
 >0x21 TIF> >0x0D TIF> >0x21 TIF> >0x108 TIF>Found SWD-DP with ID 0x1BA01477 >0x0D TIF> >0x28 TIF> >0x0D TIF> >0x28 TIF> >0x0D TIF> >0x28 TIF> >0x0D TIF> >0x28 TIF> >0x0D TIF> >0x21 TIF> >0x0D TIF> >0x28 TIF> >0x0D TIF> >0x28 TIF> >0x0D TIF> >0x21 TIF> >0x0D TIF> >0x21 TIF> >0x0D TIF> >0x21 TIF> >0x0D TIF> >0x28 TIF> >0x0D TIF> >0x28 TIF> >0x0D TIF> >0x28 TIF> >0x0D TIF> >0x21 TIF> >0x0D TIF> >0x21 TIF> >0x0D TIF> >0x28 TIF> >0x0D TIF> >0x21 TIF> >0x0D TIF> >0x21 TIF>Found Cortex-M3 r1p1, Little endian.
 -- CPU_ReadMem(4 bytes @ 0xE000EDF0) -- CPU_WriteMem(4 bytes @ 0xE000EDF0) -- CPU_ReadMem(4 bytes @ 0xE0002000)FPUnit: 6 code (BP) slots and 2 literal slots -- CPU_ReadMem(4 bytes @ 0xE000EDFC) -- CPU_WriteMem(4 bytes @ 0xE000EDFC) -- CPU_ReadMem(4 bytes @ 0xE0001000) -- CPU_WriteMem(4 bytes @ 0xE0001000) -- CPU_ReadMem(4 bytes @ 0xE000ED88) -- CPU_WriteMem(4 bytes @ 0xE000ED88) -- CPU_ReadMem(4 bytes @ 0xE000ED88) -- CPU_WriteMem(4 bytes @ 0xE000ED88)CoreSight components:ROMTbl 0 @ E00FF000
 -- CPU_ReadMem(16 bytes @ 0xE00FF000) -- CPU_ReadMem(16 bytes @ 0xE000EFF0) -- CPU_ReadMem(16 bytes @ 0xE000EFE0)ROMTbl 0 [0]: FFF0F000, CID: B105E00D, PID: 001BB000 SCS -- CPU_ReadMem(16 bytes @ 0xE0001FF0) -- CPU_ReadMem(16 bytes @ 0xE0001FE0)ROMTbl 0 [1]: FFF02000, CID: B105E00D, PID: 001BB002 DWT -- CPU_ReadMem(16 bytes @ 0xE0002FF0) -- CPU_ReadMem(16 bytes @ 0xE0002FE0)ROMTbl 0 [2]: FFF03000, CID: B105E00D, PID: 000BB003 FPB -- CPU_ReadMem(16 bytes @ 0xE0000FF0)
 -- CPU_ReadMem(16 bytes @ 0xE0000FE0)ROMTbl 0 [3]: FFF01000, CID: B105E00D, PID: 001BB001 ITM -- CPU_ReadMem(16 bytes @ 0xE00FF010) -- CPU_ReadMem(16 bytes @ 0xE0040FF0) -- CPU_ReadMem(16 bytes @ 0xE0040FE0)ROMTbl 0 [4]: FFF41000, CID: B105900D, PID: 001BB923 TPIU-Lite >0x0D TIF> >0x21 TIF>  returns 0x1BA01477 (0077ms, 0620ms total)
T2744 000:726 JLINK_GetDLLVersion()  returns 51008 (0000ms, 0620ms total)
T2744 000:726 JLINK_CORE_GetFound()  returns 0x30000FF (0000ms, 0620ms total)
T2744 000:726 JLINK_GetDebugInfo(0x100) -- Value=0xE00FF000  returns 0x00 (0000ms, 0620ms total)
T2744 000:730 JLINK_GetDebugInfo(0x100) -- Value=0xE00FF000  returns 0x00 (0000ms, 0620ms total)
T2744 000:730 JLINK_GetDebugInfo(0x101) -- Value=0x00000000  returns 0x00 (0000ms, 0620ms total)
T2744 000:730 JLINK_ReadMem (0xE0041FF0, 0x0010 Bytes, ...) -- CPU is running -- CPU_ReadMem(16 bytes @ 0xE0041FF0) - Data: 00 00 00 00 00 00 00 00 00 00 00 00 00 00 00 00  returns 0x00 (0001ms, 0621ms total)
T2744 000:731 JLINK_GetDebugInfo(0x102) -- Value=0x00000000  returns 0x00 (0000ms, 0621ms total)
T2744 000:731 JLINK_GetDebugInfo(0x103) -- Value=0xE0040000  returns 0x00 (0000ms, 0621ms total)
T2744 000:731 JLINK_GetDebugInfo(0x104) -- Value=0xE0000000  returns 0x00 (0000ms, 0621ms total)
T2744 000:731 JLINK_GetDebugInfo(0x105) -- Value=0xE0001000  returns 0x00 (0000ms, 0621ms total)
T2744 000:731 JLINK_GetDebugInfo(0x106) -- Value=0xE0002000  returns 0x00 (0000ms, 0621ms total)
T2744 000:731 JLINK_GetDebugInfo(0x107) -- Value=0xE000E000  returns 0x00 (0000ms, 0621ms total)
T2744 000:731 JLINK_GetDebugInfo(0x10C) -- Value=0xE000EDF0  returns 0x00 (0000ms, 0621ms total)
T2744 000:731 JLINK_ReadMemU32(0xE000ED00, 0x0001 Items, ...) -- CPU is running -- CPU_ReadMem(4 bytes @ 0xE000ED00) - Data: 31 C2 1F 41  returns 0x01 (0001ms, 0622ms total)
T2744 000:732 JLINK_SetResetType(JLINKARM_RESET_TYPE_NORMAL)  returns JLINKARM_RESET_TYPE_NORMAL (0000ms, 0622ms total)
T2744 000:732 JLINK_Reset() -- CPU is running -- CPU_WriteMem(4 bytes @ 0xE000EDF0) -- CPU is running -- CPU_WriteMem(4 bytes @ 0xE000EDFC) >0x35 TIF> -- CPU is running -- CPU_WriteMem(4 bytes @ 0xE000ED0C) -- CPU is running -- CPU_ReadMem(4 bytes @ 0xE000EDF0) -- CPU is running -- CPU_ReadMem(4 bytes @ 0xE000EDF0) -- CPU is running -- CPU_WriteMem(4 bytes @ 0xE000EDF0) -- CPU is running -- CPU_WriteMem(4 bytes @ 0xE000EDFC) -- CPU is running -- CPU_ReadMem(4 bytes @ 0xE000EDF0)
 -- CPU_WriteMem(4 bytes @ 0xE0002000) -- CPU_ReadMem(4 bytes @ 0xE000EDFC) -- CPU_ReadMem(4 bytes @ 0xE0001000) (0016ms, 0638ms total)
T2744 000:748 JLINK_Halt()  returns 0x00 (0000ms, 0638ms total)
T2744 000:748 JLINK_IsHalted()  returns TRUE (0000ms, 0638ms total)
T2744 000:748 JLINK_ReadMemU32(0xE000EDF0, 0x0001 Items, ...) -- CPU_ReadMem(4 bytes @ 0xE000EDF0) - Data: 03 00 03 00  returns 0x01 (0001ms, 0639ms total)
T2744 000:749 JLINK_WriteU32(0xE000EDF0, 0xA05F0003) -- CPU_WriteMem(4 bytes @ 0xE000EDF0)  returns 0x00 (0000ms, 0639ms total)
T2744 000:749 JLINK_WriteU32(0xE000EDFC, 0x01000000) -- CPU_WriteMem(4 bytes @ 0xE000EDFC)  returns 0x00 (0001ms, 0640ms total)
T2744 000:767 JLINK_GetHWStatus(...)  returns 0x00 (0000ms, 0640ms total)
T2744 000:780 JLINK_GetNumBPUnits(Type = 0xFFFFFF00)  returns 0x06 (0000ms, 0640ms total)
T2744 000:780 JLINK_GetNumBPUnits(Type = 0xF0)  returns 0x2000 (0000ms, 0640ms total)
T2744 000:780 JLINK_GetNumWPUnits()  returns 0x04 (0000ms, 0640ms total)
T2744 000:792 JLINK_GetSpeed()  returns 0xFA0 (0000ms, 0640ms total)
T2744 000:800 JLINK_ReadMemU32(0xE000E004, 0x0001 Items, ...) -- CPU_ReadMem(4 bytes @ 0xE000E004) - Data: 01 00 00 00  returns 0x01 (0000ms, 0640ms total)
T2744 000:800 JLINK_ReadMemU32(0xE000E004, 0x0001 Items, ...) -- CPU_ReadMem(4 bytes @ 0xE000E004) - Data: 01 00 00 00  returns 0x01 (0001ms, 0641ms total)
T2744 000:801 JLINK_WriteMem(0xE0001000, 0x001C Bytes, ...) - Data: 01 00 00 00 00 00 00 00 00 00 00 00 00 00 00 00 ... -- CPU_WriteMem(28 bytes @ 0xE0001000)  returns 0x1C (0001ms, 0642ms total)
T2744 000:802 JLINK_ReadMem (0xE0001000, 0x001C Bytes, ...) -- CPU_ReadMem(28 bytes @ 0xE0001000) - Data: 01 00 00 40 00 00 00 00 00 00 00 00 00 00 00 00 ...  returns 0x00 (0001ms, 0643ms total)
T2744 000:803 JLINK_Halt()  returns 0x00 (0000ms, 0643ms total)
T2744 000:803 JLINK_IsHalted()  returns TRUE (0000ms, 0643ms total)
T2744 000:805 JLINK_WriteMem(0x20000000, 0x0164 Bytes, ...) - Data: 00 BE 0A E0 0D 78 2D 06 68 40 08 24 40 00 00 D3 ... -- CPU_WriteMem(356 bytes @ 0x20000000)  returns 0x164 (0006ms, 0649ms total)
T2744 000:811 JLINK_WriteReg(R0, 0x08000000)  returns 0x00 (0000ms, 0649ms total)
T2744 000:811 JLINK_WriteReg(R1, 0x044AA200)  returns 0x00 (0000ms, 0649ms total)
T2744 000:811 JLINK_WriteReg(R2, 0x00000001)  returns 0x00 (0000ms, 0649ms total)
T2744 000:811 JLINK_WriteReg(R3, 0x00000000)  returns 0x00 (0000ms, 0649ms total)
T2744 000:811 JLINK_WriteReg(R4, 0x00000000)  returns 0x00 (0000ms, 0649ms total)
T2744 000:811 JLINK_WriteReg(R5, 0x00000000)  returns 0x00 (0000ms, 0649ms total)
T2744 000:811 JLINK_WriteReg(R6, 0x00000000)  returns 0x00 (0000ms, 0649ms total)
T2744 000:811 JLINK_WriteReg(R7, 0x00000000)  returns 0x00 (0000ms, 0649ms total)
T2744 000:811 JLINK_WriteReg(R8, 0x00000000)  returns 0x00 (0000ms, 0649ms total)
T2744 000:811 JLINK_WriteReg(R9, 0x20000160)  returns 0x00 (0000ms, 0649ms total)
T2744 000:811 JLINK_WriteReg(R10, 0x00000000)  returns 0x00 (0000ms, 0649ms total)
T2744 000:811 JLINK_WriteReg(R11, 0x00000000)  returns 0x00 (0000ms, 0649ms total)
T2744 000:811 JLINK_WriteReg(R12, 0x00000000)  returns 0x00 (0000ms, 0649ms total)
T2744 000:811 JLINK_WriteReg(R13 (SP), 0x20001000)  returns 0x00 (0000ms, 0649ms total)
T2744 000:811 JLINK_WriteReg(R14, 0x20000001)  returns 0x00 (0000ms, 0649ms total)
T2744 000:811 JLINK_WriteReg(R15 (PC), 0x20000038)  returns 0x00 (0000ms, 0649ms total)
T2744 000:811 JLINK_WriteReg(XPSR, 0x01000000)  returns 0x00 (0000ms, 0649ms total)
T2744 000:811 JLINK_WriteReg(MSP, 0x20001000)  returns 0x00 (0000ms, 0649ms total)
T2744 000:811 JLINK_WriteReg(PSP, 0x20001000)  returns 0x00 (0000ms, 0649ms total)
T2744 000:811 JLINK_WriteReg(CFBP, 0x00000000)  returns 0x00 (0000ms, 0649ms total)
T2744 000:811 JLINK_SetBPEx(Addr = 0x20000000, Type = 0xFFFFFFF2) -- CPU_ReadMem(2 bytes @ 0x20000000)  returns 0x00000001 (0001ms, 0650ms total)
T2744 000:812 JLINK_Go() -- CPU_WriteMem(2 bytes @ 0x20000000) -- CPU_ReadMem(4 bytes @ 0xE0001000) -- CPU_WriteMem(4 bytes @ 0xE0002008) -- CPU_WriteMem(4 bytes @ 0xE000200C) -- CPU_WriteMem(4 bytes @ 0xE0002010) -- CPU_WriteMem(4 bytes @ 0xE0002014) -- CPU_WriteMem(4 bytes @ 0xE0002018) -- CPU_WriteMem(4 bytes @ 0xE000201C) -- CPU_WriteMem(4 bytes @ 0xE0001004) (0006ms, 0656ms total)
T2744 000:818 JLINK_IsHalted() -- CPU_ReadMem(2 bytes @ 0x20000000)  returns TRUE (0003ms, 0659ms total)
T2744 000:821 JLINK_ReadReg(R15 (PC))  returns 0x20000000 (0000ms, 0656ms total)
T2744 000:821 JLINK_ClrBPEx(BPHandle = 0x00000001)  returns 0x00 (0000ms, 0656ms total)
T2744 000:821 JLINK_ReadReg(R0)  returns 0x00000000 (0000ms, 0656ms total)
T2744 000:822 JLINK_WriteReg(R0, 0x08000000)  returns 0x00 (0000ms, 0656ms total)
T2744 000:822 JLINK_WriteReg(R1, 0x044AA200)  returns 0x00 (0000ms, 0656ms total)
T2744 000:822 JLINK_WriteReg(R2, 0x00000001)  returns 0x00 (0000ms, 0656ms total)
T2744 000:822 JLINK_WriteReg(R3, 0x00000000)  returns 0x00 (0000ms, 0656ms total)
T2744 000:822 JLINK_WriteReg(R4, 0x00000000)  returns 0x00 (0000ms, 0656ms total)
T2744 000:822 JLINK_WriteReg(R5, 0x00000000)  returns 0x00 (0000ms, 0656ms total)
T2744 000:822 JLINK_WriteReg(R6, 0x00000000)  returns 0x00 (0000ms, 0656ms total)
T2744 000:822 JLINK_WriteReg(R7, 0x00000000)  returns 0x00 (0000ms, 0656ms total)
T2744 000:822 JLINK_WriteReg(R8, 0x00000000)  returns 0x00 (0000ms, 0656ms total)
T2744 000:822 JLINK_WriteReg(R9, 0x20000160)  returns 0x00 (0000ms, 0656ms total)
T2744 000:822 JLINK_WriteReg(R10, 0x00000000)  returns 0x00 (0000ms, 0656ms total)
T2744 000:822 JLINK_WriteReg(R11, 0x00000000)  returns 0x00 (0000ms, 0656ms total)
T2744 000:822 JLINK_WriteReg(R12, 0x00000000)  returns 0x00 (0000ms, 0656ms total)
T2744 000:822 JLINK_WriteReg(R13 (SP), 0x20001000)  returns 0x00 (0000ms, 0656ms total)
T2744 000:822 JLINK_WriteReg(R14, 0x20000001)  returns 0x00 (0000ms, 0656ms total)
T2744 000:822 JLINK_WriteReg(R15 (PC), 0x2000007C)  returns 0x00 (0000ms, 0656ms total)
T2744 000:822 JLINK_WriteReg(XPSR, 0x01000000)  returns 0x00 (0000ms, 0656ms total)
T2744 000:822 JLINK_WriteReg(MSP, 0x20001000)  returns 0x00 (0000ms, 0656ms total)
T2744 000:822 JLINK_WriteReg(PSP, 0x20001000)  returns 0x00 (0000ms, 0656ms total)
T2744 000:822 JLINK_WriteReg(CFBP, 0x00000000)  returns 0x00 (0000ms, 0656ms total)
T2744 000:822 JLINK_SetBPEx(Addr = 0x20000000, Type = 0xFFFFFFF2)  returns 0x00000002 (0000ms, 0656ms total)
T2744 000:822 JLINK_Go() -- CPU_ReadMem(4 bytes @ 0xE0001000) (0002ms, 0658ms total)
T2744 000:824 JLINK_IsHalted()  returns FALSE (0000ms, 0658ms total)
T2744 000:908 JLINK_IsHalted() -- CPU_ReadMem(2 bytes @ 0x20000000)  returns TRUE (0003ms, 0661ms total)
T2744 000:911 JLINK_ReadReg(R15 (PC))  returns 0x20000000 (0000ms, 0658ms total)
T2744 000:911 JLINK_ClrBPEx(BPHandle = 0x00000002)  returns 0x00 (0000ms, 0658ms total)
T2744 000:911 JLINK_ReadReg(R0)  returns 0x00000000 (0000ms, 0658ms total)
T2744 000:964 JLINK_WriteReg(R0, 0x00000001)  returns 0x00 (0000ms, 0658ms total)
T2744 000:964 JLINK_WriteReg(R1, 0x044AA200)  returns 0x00 (0001ms, 0659ms total)
T2744 000:965 JLINK_WriteReg(R2, 0x00000001)  returns 0x00 (0000ms, 0659ms total)
T2744 000:965 JLINK_WriteReg(R3, 0x00000000)  returns 0x00 (0000ms, 0659ms total)
T2744 000:965 JLINK_WriteReg(R4, 0x00000000)  returns 0x00 (0000ms, 0659ms total)
T2744 000:965 JLINK_WriteReg(R5, 0x00000000)  returns 0x00 (0000ms, 0659ms total)
T2744 000:965 JLINK_WriteReg(R6, 0x00000000)  returns 0x00 (0000ms, 0659ms total)
T2744 000:965 JLINK_WriteReg(R7, 0x00000000)  returns 0x00 (0000ms, 0659ms total)
T2744 000:965 JLINK_WriteReg(R8, 0x00000000)  returns 0x00 (0000ms, 0659ms total)
T2744 000:965 JLINK_WriteReg(R9, 0x20000160)  returns 0x00 (0000ms, 0659ms total)
T2744 000:965 JLINK_WriteReg(R10, 0x00000000)  returns 0x00 (0000ms, 0659ms total)
T2744 000:965 JLINK_WriteReg(R11, 0x00000000)  returns 0x00 (0000ms, 0659ms total)
T2744 000:965 JLINK_WriteReg(R12, 0x00000000)  returns 0x00 (0000ms, 0659ms total)
T2744 000:965 JLINK_WriteReg(R13 (SP), 0x20001000)  returns 0x00 (0000ms, 0659ms total)
T2744 000:965 JLINK_WriteReg(R14, 0x20000001)  returns 0x00 (0000ms, 0659ms total)
T2744 000:965 JLINK_WriteReg(R15 (PC), 0x2000006A)  returns 0x00 (0000ms, 0659ms total)
T2744 000:965 JLINK_WriteReg(XPSR, 0x01000000)  returns 0x00 (0000ms, 0659ms total)
T2744 000:965 JLINK_WriteReg(MSP, 0x20001000)  returns 0x00 (0000ms, 0659ms total)
T2744 000:965 JLINK_WriteReg(PSP, 0x20001000)  returns 0x00 (0000ms, 0659ms total)
T2744 000:965 JLINK_WriteReg(CFBP, 0x00000000)  returns 0x00 (0000ms, 0659ms total)
T2744 000:965 JLINK_SetBPEx(Addr = 0x20000000, Type = 0xFFFFFFF2)  returns 0x00000003 (0000ms, 0659ms total)
T2744 000:965 JLINK_Go() -- CPU_ReadMem(4 bytes @ 0xE0001000) (0002ms, 0661ms total)
T2744 000:967 JLINK_IsHalted() -- CPU_ReadMem(2 bytes @ 0x20000000)  returns TRUE (0004ms, 0665ms total)
T2744 000:971 JLINK_ReadReg(R15 (PC))  returns 0x20000000 (0000ms, 0661ms total)
T2744 000:971 JLINK_ClrBPEx(BPHandle = 0x00000003)  returns 0x00 (0000ms, 0661ms total)
T2744 000:971 JLINK_ReadReg(R0)  returns 0x00000000 (0000ms, 0661ms total)
T2744 000:990 JLINK_WriteMem(0x20000000, 0x0164 Bytes, ...) - Data: 00 BE 0A E0 0D 78 2D 06 68 40 08 24 40 00 00 D3 ... -- CPU_WriteMem(356 bytes @ 0x20000000)  returns 0x164 (0005ms, 0666ms total)
T2744 000:995 JLINK_WriteReg(R0, 0x08000000)  returns 0x00 (0000ms, 0666ms total)
T2744 000:995 JLINK_WriteReg(R1, 0x044AA200)  returns 0x00 (0000ms, 0666ms total)
T2744 000:995 JLINK_WriteReg(R2, 0x00000002)  returns 0x00 (0000ms, 0666ms total)
T2744 000:995 JLINK_WriteReg(R3, 0x00000000)  returns 0x00 (0000ms, 0666ms total)
T2744 000:995 JLINK_WriteReg(R4, 0x00000000)  returns 0x00 (0000ms, 0666ms total)
T2744 000:995 JLINK_WriteReg(R5, 0x00000000)  returns 0x00 (0000ms, 0666ms total)
T2744 000:995 JLINK_WriteReg(R6, 0x00000000)  returns 0x00 (0000ms, 0666ms total)
T2744 000:995 JLINK_WriteReg(R7, 0x00000000)  returns 0x00 (0000ms, 0666ms total)
T2744 000:995 JLINK_WriteReg(R8, 0x00000000)  returns 0x00 (0000ms, 0666ms total)
T2744 000:995 JLINK_WriteReg(R9, 0x20000160)  returns 0x00 (0000ms, 0666ms total)
T2744 000:995 JLINK_WriteReg(R10, 0x00000000)  returns 0x00 (0000ms, 0666ms total)
T2744 000:995 JLINK_WriteReg(R11, 0x00000000)  returns 0x00 (0000ms, 0666ms total)
T2744 000:995 JLINK_WriteReg(R12, 0x00000000)  returns 0x00 (0000ms, 0666ms total)
T2744 000:995 JLINK_WriteReg(R13 (SP), 0x20001000)  returns 0x00 (0000ms, 0666ms total)
T2744 000:995 JLINK_WriteReg(R14, 0x20000001)  returns 0x00 (0000ms, 0666ms total)
T2744 000:995 JLINK_WriteReg(R15 (PC), 0x20000038)  returns 0x00 (0000ms, 0666ms total)
T2744 000:995 JLINK_WriteReg(XPSR, 0x01000000)  returns 0x00 (0000ms, 0666ms total)
T2744 000:995 JLINK_WriteReg(MSP, 0x20001000)  returns 0x00 (0000ms, 0666ms total)
T2744 000:995 JLINK_WriteReg(PSP, 0x20001000)  returns 0x00 (0000ms, 0666ms total)
T2744 000:995 JLINK_WriteReg(CFBP, 0x00000000)  returns 0x00 (0000ms, 0666ms total)
T2744 000:995 JLINK_SetBPEx(Addr = 0x20000000, Type = 0xFFFFFFF2) -- CPU_ReadMem(2 bytes @ 0x20000000)  returns 0x00000004 (0001ms, 0667ms total)
T2744 000:996 JLINK_Go() -- CPU_WriteMem(2 bytes @ 0x20000000) -- CPU_ReadMem(4 bytes @ 0xE0001000) (0003ms, 0670ms total)
T2744 000:999 JLINK_IsHalted() -- CPU_ReadMem(2 bytes @ 0x20000000)  returns TRUE (0004ms, 0674ms total)
T2744 001:003 JLINK_ReadReg(R15 (PC))  returns 0x20000000 (0000ms, 0670ms total)
T2744 001:003 JLINK_ClrBPEx(BPHandle = 0x00000004)  returns 0x00 (0000ms, 0670ms total)
T2744 001:003 JLINK_ReadReg(R0)  returns 0x00000000 (0000ms, 0670ms total)
T2744 001:003 JLINK_WriteMem(0x20000164, 0x0400 Bytes, ...) - Data: 08 45 00 20 11 37 00 08 81 10 00 08 83 10 00 08 ... -- CPU_WriteMem(1024 bytes @ 0x20000164)  returns 0x400 (0013ms, 0683ms total)
T2744 001:016 JLINK_WriteReg(R0, 0x08000000)  returns 0x00 (0000ms, 0683ms total)
T2744 001:016 JLINK_WriteReg(R1, 0x00000400)  returns 0x00 (0000ms, 0683ms total)
T2744 001:016 JLINK_WriteReg(R2, 0x20000164)  returns 0x00 (0000ms, 0683ms total)
T2744 001:016 JLINK_WriteReg(R3, 0x00000000)  returns 0x00 (0000ms, 0683ms total)
T2744 001:016 JLINK_WriteReg(R4, 0x00000000)  returns 0x00 (0000ms, 0683ms total)
T2744 001:016 JLINK_WriteReg(R5, 0x00000000)  returns 0x00 (0000ms, 0683ms total)
T2744 001:016 JLINK_WriteReg(R6, 0x00000000)  returns 0x00 (0000ms, 0683ms total)
T2744 001:016 JLINK_WriteReg(R7, 0x00000000)  returns 0x00 (0000ms, 0683ms total)
T2744 001:016 JLINK_WriteReg(R8, 0x00000000)  returns 0x00 (0000ms, 0683ms total)
T2744 001:016 JLINK_WriteReg(R9, 0x20000160)  returns 0x00 (0000ms, 0683ms total)
T2744 001:016 JLINK_WriteReg(R10, 0x00000000)  returns 0x00 (0000ms, 0683ms total)
T2744 001:016 JLINK_WriteReg(R11, 0x00000000)  returns 0x00 (0000ms, 0683ms total)
T2744 001:016 JLINK_WriteReg(R12, 0x00000000)  returns 0x00 (0000ms, 0683ms total)
T2744 001:016 JLINK_WriteReg(R13 (SP), 0x20001000)  returns 0x00 (0000ms, 0683ms total)
T2744 001:016 JLINK_WriteReg(R14, 0x20000001)  returns 0x00 (0000ms, 0683ms total)
T2744 001:016 JLINK_WriteReg(R15 (PC), 0x200000F4)  returns 0x00 (0000ms, 0683ms total)
T2744 001:016 JLINK_WriteReg(XPSR, 0x01000000)  returns 0x00 (0000ms, 0683ms total)
T2744 001:016 JLINK_WriteReg(MSP, 0x20001000)  returns 0x00 (0000ms, 0683ms total)
T2744 001:016 JLINK_WriteReg(PSP, 0x20001000)  returns 0x00 (0000ms, 0683ms total)
T2744 001:016 JLINK_WriteReg(CFBP, 0x00000000)  returns 0x00 (0000ms, 0683ms total)
T2744 001:017 JLINK_SetBPEx(Addr = 0x20000000, Type = 0xFFFFFFF2)  returns 0x00000005 (0000ms, 0684ms total)
T2744 001:017 JLINK_Go() -- CPU_ReadMem(4 bytes @ 0xE0001000) (0002ms, 0686ms total)
T2744 001:019 JLINK_IsHalted()  returns FALSE (0001ms, 0687ms total)
T2744 001:077 JLINK_IsHalted() -- CPU_ReadMem(2 bytes @ 0x20000000)  returns TRUE (0003ms, 0689ms total)
T2744 001:080 JLINK_ReadReg(R15 (PC))  returns 0x20000000 (0000ms, 0686ms total)
T2744 001:080 JLINK_ClrBPEx(BPHandle = 0x00000005)  returns 0x00 (0000ms, 0686ms total)
T2744 001:080 JLINK_ReadReg(R0)  returns 0x00000000 (0000ms, 0686ms total)
T2744 001:081 JLINK_WriteMem(0x20000164, 0x0400 Bytes, ...) - Data: 02 EB 44 12 52 68 80 1A 88 4A 12 68 00 FB 02 10 ... -- CPU_WriteMem(1024 bytes @ 0x20000164)  returns 0x400 (0012ms, 0698ms total)
T2744 001:093 JLINK_WriteReg(R0, 0x08000400)  returns 0x00 (0000ms, 0698ms total)
T2744 001:093 JLINK_WriteReg(R1, 0x00000400)  returns 0x00 (0000ms, 0698ms total)
T2744 001:093 JLINK_WriteReg(R2, 0x20000164)  returns 0x00 (0000ms, 0698ms total)
T2744 001:093 JLINK_WriteReg(R3, 0x00000000)  returns 0x00 (0000ms, 0698ms total)
T2744 001:093 JLINK_WriteReg(R4, 0x00000000)  returns 0x00 (0000ms, 0698ms total)
T2744 001:093 JLINK_WriteReg(R5, 0x00000000)  returns 0x00 (0000ms, 0698ms total)
T2744 001:093 JLINK_WriteReg(R6, 0x00000000)  returns 0x00 (0000ms, 0698ms total)
T2744 001:093 JLINK_WriteReg(R7, 0x00000000)  returns 0x00 (0000ms, 0698ms total)
T2744 001:093 JLINK_WriteReg(R8, 0x00000000)  returns 0x00 (0000ms, 0698ms total)
T2744 001:093 JLINK_WriteReg(R9, 0x20000160)  returns 0x00 (0000ms, 0698ms total)
T2744 001:093 JLINK_WriteReg(R10, 0x00000000)  returns 0x00 (0000ms, 0698ms total)
T2744 001:093 JLINK_WriteReg(R11, 0x00000000)  returns 0x00 (0000ms, 0698ms total)
T2744 001:093 JLINK_WriteReg(R12, 0x00000000)  returns 0x00 (0000ms, 0698ms total)
T2744 001:093 JLINK_WriteReg(R13 (SP), 0x20001000)  returns 0x00 (0000ms, 0698ms total)
T2744 001:093 JLINK_WriteReg(R14, 0x20000001)  returns 0x00 (0001ms, 0699ms total)
T2744 001:094 JLINK_WriteReg(R15 (PC), 0x200000F4)  returns 0x00 (0000ms, 0699ms total)
T2744 001:094 JLINK_WriteReg(XPSR, 0x01000000)  returns 0x00 (0000ms, 0699ms total)
T2744 001:094 JLINK_WriteReg(MSP, 0x20001000)  returns 0x00 (0000ms, 0699ms total)
T2744 001:094 JLINK_WriteReg(PSP, 0x20001000)  returns 0x00 (0000ms, 0699ms total)
T2744 001:094 JLINK_WriteReg(CFBP, 0x00000000)  returns 0x00 (0000ms, 0699ms total)
T2744 001:094 JLINK_SetBPEx(Addr = 0x20000000, Type = 0xFFFFFFF2)  returns 0x00000006 (0000ms, 0699ms total)
T2744 001:094 JLINK_Go() -- CPU_ReadMem(4 bytes @ 0xE0001000) (0002ms, 0701ms total)
T2744 001:096 JLINK_IsHalted()  returns FALSE (0000ms, 0701ms total)
T2744 001:098 JLINK_IsHalted()  returns FALSE (0000ms, 0701ms total)
T2744 001:100 JLINK_IsHalted()  returns FALSE (0000ms, 0701ms total)
T2744 001:112 JLINK_IsHalted()  returns FALSE (0000ms, 0701ms total)
T2744 001:114 JLINK_IsHalted()  returns FALSE (0000ms, 0701ms total)
T2744 001:116 JLINK_IsHalted()  returns FALSE (0000ms, 0701ms total)
T2744 001:118 JLINK_IsHalted()  returns FALSE (0000ms, 0701ms total)
T2744 001:120 JLINK_IsHalted()  returns FALSE (0000ms, 0701ms total)
T2744 001:122 JLINK_IsHalted()  returns FALSE (0000ms, 0701ms total)
T2744 001:124 JLINK_IsHalted()  returns FALSE (0000ms, 0701ms total)
T2744 001:126 JLINK_IsHalted()  returns FALSE (0000ms, 0701ms total)
T2744 001:128 JLINK_IsHalted() -- CPU_ReadMem(2 bytes @ 0x20000000)  returns TRUE (0003ms, 0704ms total)
T2744 001:131 JLINK_ReadReg(R15 (PC))  returns 0x20000000 (0000ms, 0701ms total)
T2744 001:131 JLINK_ClrBPEx(BPHandle = 0x00000006)  returns 0x00 (0000ms, 0701ms total)
T2744 001:131 JLINK_ReadReg(R0)  returns 0x00000000 (0000ms, 0701ms total)
T2744 001:132 JLINK_WriteMem(0x20000164, 0x0400 Bytes, ...) - Data: 08 70 02 E0 00 20 AB 49 08 70 AB 48 00 78 07 28 ... -- CPU_WriteMem(1024 bytes @ 0x20000164)  returns 0x400 (0012ms, 0713ms total)
T2744 001:144 JLINK_WriteReg(R0, 0x08000800)  returns 0x00 (0000ms, 0713ms total)
T2744 001:144 JLINK_WriteReg(R1, 0x00000400)  returns 0x00 (0000ms, 0713ms total)
T2744 001:144 JLINK_WriteReg(R2, 0x20000164)  returns 0x00 (0000ms, 0713ms total)
T2744 001:144 JLINK_WriteReg(R3, 0x00000000)  returns 0x00 (0000ms, 0713ms total)
T2744 001:144 JLINK_WriteReg(R4, 0x00000000)  returns 0x00 (0000ms, 0713ms total)
T2744 001:144 JLINK_WriteReg(R5, 0x00000000)  returns 0x00 (0000ms, 0713ms total)
T2744 001:144 JLINK_WriteReg(R6, 0x00000000)  returns 0x00 (0000ms, 0713ms total)
T2744 001:144 JLINK_WriteReg(R7, 0x00000000)  returns 0x00 (0000ms, 0713ms total)
T2744 001:144 JLINK_WriteReg(R8, 0x00000000)  returns 0x00 (0000ms, 0713ms total)
T2744 001:144 JLINK_WriteReg(R9, 0x20000160)  returns 0x00 (0000ms, 0713ms total)
T2744 001:144 JLINK_WriteReg(R10, 0x00000000)  returns 0x00 (0000ms, 0713ms total)
T2744 001:144 JLINK_WriteReg(R11, 0x00000000)  returns 0x00 (0000ms, 0713ms total)
T2744 001:144 JLINK_WriteReg(R12, 0x00000000)  returns 0x00 (0000ms, 0713ms total)
T2744 001:144 JLINK_WriteReg(R13 (SP), 0x20001000)  returns 0x00 (0000ms, 0713ms total)
T2744 001:144 JLINK_WriteReg(R14, 0x20000001)  returns 0x00 (0000ms, 0713ms total)
T2744 001:144 JLINK_WriteReg(R15 (PC), 0x200000F4)  returns 0x00 (0001ms, 0714ms total)
T2744 001:145 JLINK_WriteReg(XPSR, 0x01000000)  returns 0x00 (0000ms, 0714ms total)
T2744 001:145 JLINK_WriteReg(MSP, 0x20001000)  returns 0x00 (0000ms, 0714ms total)
T2744 001:145 JLINK_WriteReg(PSP, 0x20001000)  returns 0x00 (0000ms, 0714ms total)
T2744 001:145 JLINK_WriteReg(CFBP, 0x00000000)  returns 0x00 (0000ms, 0714ms total)
T2744 001:145 JLINK_SetBPEx(Addr = 0x20000000, Type = 0xFFFFFFF2)  returns 0x00000007 (0000ms, 0714ms total)
T2744 001:145 JLINK_Go() -- CPU_ReadMem(4 bytes @ 0xE0001000) (0002ms, 0716ms total)
T2744 001:147 JLINK_IsHalted()  returns FALSE (0000ms, 0716ms total)
T2744 001:157 JLINK_IsHalted()  returns FALSE (0000ms, 0716ms total)
T2744 001:159 JLINK_IsHalted()  returns FALSE (0000ms, 0716ms total)
T2744 001:162 JLINK_IsHalted()  returns FALSE (0000ms, 0716ms total)
T2744 001:164 JLINK_IsHalted()  returns FALSE (0000ms, 0716ms total)
T2744 001:187 JLINK_IsHalted() -- CPU_ReadMem(2 bytes @ 0x20000000)  returns TRUE (0004ms, 0720ms total)
T2744 001:191 JLINK_ReadReg(R15 (PC))  returns 0x20000000 (0000ms, 0716ms total)
T2744 001:191 JLINK_ClrBPEx(BPHandle = 0x00000007)  returns 0x00 (0000ms, 0716ms total)
T2744 001:191 JLINK_ReadReg(R0)  returns 0x00000000 (0000ms, 0716ms total)
T2744 001:192 JLINK_WriteMem(0x20000164, 0x0400 Bytes, ...) - Data: 0B 98 07 F0 0B F8 07 F0 05 F8 0B 90 C4 48 00 78 ... -- CPU_WriteMem(1024 bytes @ 0x20000164)  returns 0x400 (0013ms, 0729ms total)
T2744 001:205 JLINK_WriteReg(R0, 0x08000C00)  returns 0x00 (0000ms, 0729ms total)
T2744 001:205 JLINK_WriteReg(R1, 0x00000400)  returns 0x00 (0000ms, 0729ms total)
T2744 001:205 JLINK_WriteReg(R2, 0x20000164)  returns 0x00 (0000ms, 0729ms total)
T2744 001:205 JLINK_WriteReg(R3, 0x00000000)  returns 0x00 (0000ms, 0729ms total)
T2744 001:205 JLINK_WriteReg(R4, 0x00000000)  returns 0x00 (0000ms, 0729ms total)
T2744 001:205 JLINK_WriteReg(R5, 0x00000000)  returns 0x00 (0000ms, 0729ms total)
T2744 001:205 JLINK_WriteReg(R6, 0x00000000)  returns 0x00 (0000ms, 0729ms total)
T2744 001:205 JLINK_WriteReg(R7, 0x00000000)  returns 0x00 (0000ms, 0729ms total)
T2744 001:205 JLINK_WriteReg(R8, 0x00000000)  returns 0x00 (0000ms, 0729ms total)
T2744 001:205 JLINK_WriteReg(R9, 0x20000160)  returns 0x00 (0000ms, 0729ms total)
T2744 001:205 JLINK_WriteReg(R10, 0x00000000)  returns 0x00 (0000ms, 0729ms total)
T2744 001:205 JLINK_WriteReg(R11, 0x00000000)  returns 0x00 (0000ms, 0729ms total)
T2744 001:205 JLINK_WriteReg(R12, 0x00000000)  returns 0x00 (0000ms, 0729ms total)
T2744 001:205 JLINK_WriteReg(R13 (SP), 0x20001000)  returns 0x00 (0000ms, 0729ms total)
T2744 001:205 JLINK_WriteReg(R14, 0x20000001)  returns 0x00 (0001ms, 0730ms total)
T2744 001:206 JLINK_WriteReg(R15 (PC), 0x200000F4)  returns 0x00 (0000ms, 0730ms total)
T2744 001:206 JLINK_WriteReg(XPSR, 0x01000000)  returns 0x00 (0000ms, 0730ms total)
T2744 001:206 JLINK_WriteReg(MSP, 0x20001000)  returns 0x00 (0000ms, 0730ms total)
T2744 001:206 JLINK_WriteReg(PSP, 0x20001000)  returns 0x00 (0000ms, 0730ms total)
T2744 001:206 JLINK_WriteReg(CFBP, 0x00000000)  returns 0x00 (0000ms, 0730ms total)
T2744 001:206 JLINK_SetBPEx(Addr = 0x20000000, Type = 0xFFFFFFF2)  returns 0x00000008 (0000ms, 0730ms total)
T2744 001:206 JLINK_Go() -- CPU_ReadMem(4 bytes @ 0xE0001000) (0002ms, 0732ms total)
T2744 001:208 JLINK_IsHalted()  returns FALSE (0001ms, 0733ms total)
T2744 001:238 JLINK_IsHalted()  returns FALSE (0000ms, 0732ms total)
T2744 001:240 JLINK_IsHalted() -- CPU_ReadMem(2 bytes @ 0x20000000)  returns TRUE (0004ms, 0736ms total)
T2744 001:244 JLINK_ReadReg(R15 (PC))  returns 0x20000000 (0000ms, 0732ms total)
T2744 001:244 JLINK_ClrBPEx(BPHandle = 0x00000008)  returns 0x00 (0000ms, 0732ms total)
T2744 001:244 JLINK_ReadReg(R0)  returns 0x00000000 (0000ms, 0732ms total)
T2744 001:247 JLINK_WriteMem(0x20000164, 0x0400 Bytes, ...) - Data: ED F8 02 F0 6B F9 02 F0 7E F9 01 F0 3F FF 01 F0 ... -- CPU_WriteMem(1024 bytes @ 0x20000164)  returns 0x400 (0012ms, 0744ms total)
T2744 001:260 JLINK_WriteReg(R0, 0x08001000)  returns 0x00 (0000ms, 0744ms total)
T2744 001:260 JLINK_WriteReg(R1, 0x00000400)  returns 0x00 (0000ms, 0744ms total)
T2744 001:260 JLINK_WriteReg(R2, 0x20000164)  returns 0x00 (0000ms, 0744ms total)
T2744 001:260 JLINK_WriteReg(R3, 0x00000000)  returns 0x00 (0000ms, 0744ms total)
T2744 001:260 JLINK_WriteReg(R4, 0x00000000)  returns 0x00 (0000ms, 0744ms total)
T2744 001:260 JLINK_WriteReg(R5, 0x00000000)  returns 0x00 (0000ms, 0744ms total)
T2744 001:260 JLINK_WriteReg(R6, 0x00000000)  returns 0x00 (0000ms, 0744ms total)
T2744 001:260 JLINK_WriteReg(R7, 0x00000000)  returns 0x00 (0000ms, 0744ms total)
T2744 001:260 JLINK_WriteReg(R8, 0x00000000)  returns 0x00 (0000ms, 0744ms total)
T2744 001:260 JLINK_WriteReg(R9, 0x20000160)  returns 0x00 (0000ms, 0744ms total)
T2744 001:260 JLINK_WriteReg(R10, 0x00000000)  returns 0x00 (0000ms, 0744ms total)
T2744 001:260 JLINK_WriteReg(R11, 0x00000000)  returns 0x00 (0000ms, 0744ms total)
T2744 001:260 JLINK_WriteReg(R12, 0x00000000)  returns 0x00 (0000ms, 0744ms total)
T2744 001:260 JLINK_WriteReg(R13 (SP), 0x20001000)  returns 0x00 (0000ms, 0744ms total)
T2744 001:260 JLINK_WriteReg(R14, 0x20000001)  returns 0x00 (0000ms, 0744ms total)
T2744 001:260 JLINK_WriteReg(R15 (PC), 0x200000F4)  returns 0x00 (0000ms, 0744ms total)
T2744 001:260 JLINK_WriteReg(XPSR, 0x01000000)  returns 0x00 (0000ms, 0744ms total)
T2744 001:260 JLINK_WriteReg(MSP, 0x20001000)  returns 0x00 (0000ms, 0744ms total)
T2744 001:260 JLINK_WriteReg(PSP, 0x20001000)  returns 0x00 (0000ms, 0744ms total)
T2744 001:260 JLINK_WriteReg(CFBP, 0x00000000)  returns 0x00 (0000ms, 0744ms total)
T2744 001:260 JLINK_SetBPEx(Addr = 0x20000000, Type = 0xFFFFFFF2)  returns 0x00000009 (0000ms, 0744ms total)
T2744 001:260 JLINK_Go() -- CPU_ReadMem(4 bytes @ 0xE0001000) (0002ms, 0746ms total)
T2744 001:262 JLINK_IsHalted()  returns FALSE (0001ms, 0747ms total)
T2744 001:271 JLINK_IsHalted()  returns FALSE (0000ms, 0746ms total)
T2744 001:273 JLINK_IsHalted()  returns FALSE (0000ms, 0746ms total)
T2744 001:275 JLINK_IsHalted()  returns FALSE (0000ms, 0746ms total)
T2744 001:283 JLINK_IsHalted()  returns FALSE (0000ms, 0746ms total)
T2744 001:285 JLINK_IsHalted()  returns FALSE (0000ms, 0746ms total)
T2744 001:287 JLINK_IsHalted()  returns FALSE (0000ms, 0746ms total)
T2744 001:292 JLINK_IsHalted()  returns FALSE (0000ms, 0746ms total)
T2744 001:294 JLINK_IsHalted() -- CPU_ReadMem(2 bytes @ 0x20000000)  returns TRUE (0003ms, 0749ms total)
T2744 001:297 JLINK_ReadReg(R15 (PC))  returns 0x20000000 (0000ms, 0746ms total)
T2744 001:297 JLINK_ClrBPEx(BPHandle = 0x00000009)  returns 0x00 (0000ms, 0746ms total)
T2744 001:297 JLINK_ReadReg(R0)  returns 0x00000000 (0000ms, 0746ms total)
T2744 001:298 JLINK_WriteMem(0x20000164, 0x0400 Bytes, ...) - Data: 28 46 04 B0 70 BD 70 B5 04 46 A0 78 64 21 00 FB ... -- CPU_WriteMem(1024 bytes @ 0x20000164)  returns 0x400 (0012ms, 0758ms total)
T2744 001:310 JLINK_WriteReg(R0, 0x08001400)  returns 0x00 (0001ms, 0759ms total)
T2744 001:311 JLINK_WriteReg(R1, 0x00000400)  returns 0x00 (0000ms, 0759ms total)
T2744 001:311 JLINK_WriteReg(R2, 0x20000164)  returns 0x00 (0000ms, 0759ms total)
T2744 001:311 JLINK_WriteReg(R3, 0x00000000)  returns 0x00 (0000ms, 0759ms total)
T2744 001:311 JLINK_WriteReg(R4, 0x00000000)  returns 0x00 (0000ms, 0759ms total)
T2744 001:311 JLINK_WriteReg(R5, 0x00000000)  returns 0x00 (0000ms, 0759ms total)
T2744 001:311 JLINK_WriteReg(R6, 0x00000000)  returns 0x00 (0000ms, 0759ms total)
T2744 001:311 JLINK_WriteReg(R7, 0x00000000)  returns 0x00 (0000ms, 0759ms total)
T2744 001:311 JLINK_WriteReg(R8, 0x00000000)  returns 0x00 (0000ms, 0759ms total)
T2744 001:311 JLINK_WriteReg(R9, 0x20000160)  returns 0x00 (0000ms, 0759ms total)
T2744 001:311 JLINK_WriteReg(R10, 0x00000000)  returns 0x00 (0000ms, 0759ms total)
T2744 001:311 JLINK_WriteReg(R11, 0x00000000)  returns 0x00 (0000ms, 0759ms total)
T2744 001:311 JLINK_WriteReg(R12, 0x00000000)  returns 0x00 (0000ms, 0759ms total)
T2744 001:311 JLINK_WriteReg(R13 (SP), 0x20001000)  returns 0x00 (0000ms, 0759ms total)
T2744 001:311 JLINK_WriteReg(R14, 0x20000001)  returns 0x00 (0000ms, 0759ms total)
T2744 001:311 JLINK_WriteReg(R15 (PC), 0x200000F4)  returns 0x00 (0000ms, 0759ms total)
T2744 001:311 JLINK_WriteReg(XPSR, 0x01000000)  returns 0x00 (0000ms, 0759ms total)
T2744 001:311 JLINK_WriteReg(MSP, 0x20001000)  returns 0x00 (0000ms, 0759ms total)
T2744 001:311 JLINK_WriteReg(PSP, 0x20001000)  returns 0x00 (0000ms, 0759ms total)
T2744 001:311 JLINK_WriteReg(CFBP, 0x00000000)  returns 0x00 (0000ms, 0759ms total)
T2744 001:311 JLINK_SetBPEx(Addr = 0x20000000, Type = 0xFFFFFFF2)  returns 0x0000000A (0000ms, 0759ms total)
T2744 001:311 JLINK_Go() -- CPU_ReadMem(4 bytes @ 0xE0001000) (0003ms, 0762ms total)
T2744 001:314 JLINK_IsHalted()  returns FALSE (0000ms, 0762ms total)
T2744 001:316 JLINK_IsHalted()  returns FALSE (0000ms, 0762ms total)
T2744 001:318 JLINK_IsHalted()  returns FALSE (0000ms, 0762ms total)
T2744 001:320 JLINK_IsHalted()  returns FALSE (0000ms, 0762ms total)
T2744 001:322 JLINK_IsHalted()  returns FALSE (0000ms, 0762ms total)
T2744 001:323 JLINK_IsHalted()  returns FALSE (0000ms, 0762ms total)
T2744 001:349 JLINK_IsHalted() -- CPU_ReadMem(2 bytes @ 0x20000000)  returns TRUE (0004ms, 0766ms total)
T2744 001:353 JLINK_ReadReg(R15 (PC))  returns 0x20000000 (0000ms, 0762ms total)
T2744 001:353 JLINK_ClrBPEx(BPHandle = 0x0000000A)  returns 0x00 (0000ms, 0762ms total)
T2744 001:353 JLINK_ReadReg(R0)  returns 0x00000000 (0000ms, 0762ms total)
T2744 001:357 JLINK_WriteMem(0x20000164, 0x0400 Bytes, ...) - Data: BF 48 0C C8 00 20 BF 49 09 F0 86 F9 BE 4A 03 C2 ... -- CPU_WriteMem(1024 bytes @ 0x20000164)  returns 0x400 (0013ms, 0775ms total)
T2744 001:370 JLINK_WriteReg(R0, 0x08001800)  returns 0x00 (0000ms, 0775ms total)
T2744 001:370 JLINK_WriteReg(R1, 0x00000400)  returns 0x00 (0000ms, 0775ms total)
T2744 001:370 JLINK_WriteReg(R2, 0x20000164)  returns 0x00 (0000ms, 0775ms total)
T2744 001:370 JLINK_WriteReg(R3, 0x00000000)  returns 0x00 (0000ms, 0775ms total)
T2744 001:370 JLINK_WriteReg(R4, 0x00000000)  returns 0x00 (0000ms, 0775ms total)
T2744 001:370 JLINK_WriteReg(R5, 0x00000000)  returns 0x00 (0000ms, 0775ms total)
T2744 001:370 JLINK_WriteReg(R6, 0x00000000)  returns 0x00 (0000ms, 0775ms total)
T2744 001:370 JLINK_WriteReg(R7, 0x00000000)  returns 0x00 (0000ms, 0775ms total)
T2744 001:370 JLINK_WriteReg(R8, 0x00000000)  returns 0x00 (0000ms, 0775ms total)
T2744 001:370 JLINK_WriteReg(R9, 0x20000160)  returns 0x00 (0000ms, 0775ms total)
T2744 001:370 JLINK_WriteReg(R10, 0x00000000)  returns 0x00 (0000ms, 0775ms total)
T2744 001:370 JLINK_WriteReg(R11, 0x00000000)  returns 0x00 (0000ms, 0775ms total)
T2744 001:370 JLINK_WriteReg(R12, 0x00000000)  returns 0x00 (0000ms, 0775ms total)
T2744 001:370 JLINK_WriteReg(R13 (SP), 0x20001000)  returns 0x00 (0000ms, 0775ms total)
T2744 001:370 JLINK_WriteReg(R14, 0x20000001)  returns 0x00 (0000ms, 0775ms total)
T2744 001:370 JLINK_WriteReg(R15 (PC), 0x200000F4)  returns 0x00 (0000ms, 0775ms total)
T2744 001:370 JLINK_WriteReg(XPSR, 0x01000000)  returns 0x00 (0000ms, 0775ms total)
T2744 001:370 JLINK_WriteReg(MSP, 0x20001000)  returns 0x00 (0000ms, 0775ms total)
T2744 001:370 JLINK_WriteReg(PSP, 0x20001000)  returns 0x00 (0000ms, 0775ms total)
T2744 001:370 JLINK_WriteReg(CFBP, 0x00000000)  returns 0x00 (0001ms, 0776ms total)
T2744 001:371 JLINK_SetBPEx(Addr = 0x20000000, Type = 0xFFFFFFF2)  returns 0x0000000B (0000ms, 0776ms total)
T2744 001:371 JLINK_Go() -- CPU_ReadMem(4 bytes @ 0xE0001000) (0002ms, 0778ms total)
T2744 001:373 JLINK_IsHalted()  returns FALSE (0000ms, 0778ms total)
T2744 001:396 JLINK_IsHalted()  returns FALSE (0000ms, 0778ms total)
T2744 001:406 JLINK_IsHalted() -- CPU_ReadMem(2 bytes @ 0x20000000)  returns TRUE (0003ms, 0781ms total)
T2744 001:409 JLINK_ReadReg(R15 (PC))  returns 0x20000000 (0000ms, 0778ms total)
T2744 001:409 JLINK_ClrBPEx(BPHandle = 0x0000000B)  returns 0x00 (0000ms, 0778ms total)
T2744 001:409 JLINK_ReadReg(R0)  returns 0x00000000 (0000ms, 0778ms total)
T2744 001:414 JLINK_WriteMem(0x20000164, 0x0400 Bytes, ...) - Data: D5 E9 07 03 D5 E9 05 12 C9 E9 02 03 C9 E9 00 12 ... -- CPU_WriteMem(1024 bytes @ 0x20000164)  returns 0x400 (0013ms, 0791ms total)
T2744 001:427 JLINK_WriteReg(R0, 0x08001C00)  returns 0x00 (0000ms, 0791ms total)
T2744 001:427 JLINK_WriteReg(R1, 0x00000400)  returns 0x00 (0000ms, 0791ms total)
T2744 001:427 JLINK_WriteReg(R2, 0x20000164)  returns 0x00 (0000ms, 0791ms total)
T2744 001:427 JLINK_WriteReg(R3, 0x00000000)  returns 0x00 (0000ms, 0791ms total)
T2744 001:427 JLINK_WriteReg(R4, 0x00000000)  returns 0x00 (0000ms, 0791ms total)
T2744 001:427 JLINK_WriteReg(R5, 0x00000000)  returns 0x00 (0000ms, 0791ms total)
T2744 001:427 JLINK_WriteReg(R6, 0x00000000)  returns 0x00 (0000ms, 0791ms total)
T2744 001:427 JLINK_WriteReg(R7, 0x00000000)  returns 0x00 (0000ms, 0791ms total)
T2744 001:427 JLINK_WriteReg(R8, 0x00000000)  returns 0x00 (0000ms, 0791ms total)
T2744 001:427 JLINK_WriteReg(R9, 0x20000160)  returns 0x00 (0000ms, 0791ms total)
T2744 001:427 JLINK_WriteReg(R10, 0x00000000)  returns 0x00 (0000ms, 0791ms total)
T2744 001:427 JLINK_WriteReg(R11, 0x00000000)  returns 0x00 (0000ms, 0791ms total)
T2744 001:427 JLINK_WriteReg(R12, 0x00000000)  returns 0x00 (0000ms, 0791ms total)
T2744 001:427 JLINK_WriteReg(R13 (SP), 0x20001000)  returns 0x00 (0000ms, 0791ms total)
T2744 001:427 JLINK_WriteReg(R14, 0x20000001)  returns 0x00 (0000ms, 0791ms total)
T2744 001:427 JLINK_WriteReg(R15 (PC), 0x200000F4)  returns 0x00 (0000ms, 0791ms total)
T2744 001:427 JLINK_WriteReg(XPSR, 0x01000000)  returns 0x00 (0000ms, 0791ms total)
T2744 001:427 JLINK_WriteReg(MSP, 0x20001000)  returns 0x00 (0000ms, 0791ms total)
T2744 001:427 JLINK_WriteReg(PSP, 0x20001000)  returns 0x00 (0000ms, 0791ms total)
T2744 001:427 JLINK_WriteReg(CFBP, 0x00000000)  returns 0x00 (0000ms, 0791ms total)
T2744 001:427 JLINK_SetBPEx(Addr = 0x20000000, Type = 0xFFFFFFF2)  returns 0x0000000C (0000ms, 0791ms total)
T2744 001:427 JLINK_Go() -- CPU_ReadMem(4 bytes @ 0xE0001000) (0003ms, 0794ms total)
T2744 001:430 JLINK_IsHalted()  returns FALSE (0001ms, 0795ms total)
T2744 001:467 JLINK_IsHalted() -- CPU_ReadMem(2 bytes @ 0x20000000)  returns TRUE (0003ms, 0797ms total)
T2744 001:470 JLINK_ReadReg(R15 (PC))  returns 0x20000000 (0000ms, 0794ms total)
T2744 001:470 JLINK_ClrBPEx(BPHandle = 0x0000000C)  returns 0x00 (0000ms, 0794ms total)
T2744 001:470 JLINK_ReadReg(R0)  returns 0x00000000 (0000ms, 0794ms total)
T2744 001:471 JLINK_WriteMem(0x20000164, 0x0400 Bytes, ...) - Data: 48 B9 0B 48 00 69 06 78 09 48 00 69 47 78 08 48 ... -- CPU_WriteMem(1024 bytes @ 0x20000164)  returns 0x400 (0012ms, 0806ms total)
T2744 001:483 JLINK_WriteReg(R0, 0x08002000)  returns 0x00 (0000ms, 0806ms total)
T2744 001:483 JLINK_WriteReg(R1, 0x00000400)  returns 0x00 (0000ms, 0806ms total)
T2744 001:483 JLINK_WriteReg(R2, 0x20000164)  returns 0x00 (0000ms, 0806ms total)
T2744 001:483 JLINK_WriteReg(R3, 0x00000000)  returns 0x00 (0000ms, 0806ms total)
T2744 001:483 JLINK_WriteReg(R4, 0x00000000)  returns 0x00 (0001ms, 0807ms total)
T2744 001:484 JLINK_WriteReg(R5, 0x00000000)  returns 0x00 (0000ms, 0807ms total)
T2744 001:484 JLINK_WriteReg(R6, 0x00000000)  returns 0x00 (0000ms, 0807ms total)
T2744 001:484 JLINK_WriteReg(R7, 0x00000000)  returns 0x00 (0000ms, 0807ms total)
T2744 001:484 JLINK_WriteReg(R8, 0x00000000)  returns 0x00 (0000ms, 0807ms total)
T2744 001:484 JLINK_WriteReg(R9, 0x20000160)  returns 0x00 (0000ms, 0807ms total)
T2744 001:484 JLINK_WriteReg(R10, 0x00000000)  returns 0x00 (0000ms, 0807ms total)
T2744 001:484 JLINK_WriteReg(R11, 0x00000000)  returns 0x00 (0000ms, 0807ms total)
T2744 001:484 JLINK_WriteReg(R12, 0x00000000)  returns 0x00 (0000ms, 0807ms total)
T2744 001:484 JLINK_WriteReg(R13 (SP), 0x20001000)  returns 0x00 (0000ms, 0807ms total)
T2744 001:484 JLINK_WriteReg(R14, 0x20000001)  returns 0x00 (0000ms, 0807ms total)
T2744 001:484 JLINK_WriteReg(R15 (PC), 0x200000F4)  returns 0x00 (0000ms, 0807ms total)
T2744 001:484 JLINK_WriteReg(XPSR, 0x01000000)  returns 0x00 (0000ms, 0807ms total)
T2744 001:484 JLINK_WriteReg(MSP, 0x20001000)  returns 0x00 (0000ms, 0807ms total)
T2744 001:484 JLINK_WriteReg(PSP, 0x20001000)  returns 0x00 (0000ms, 0807ms total)
T2744 001:484 JLINK_WriteReg(CFBP, 0x00000000)  returns 0x00 (0000ms, 0807ms total)
T2744 001:484 JLINK_SetBPEx(Addr = 0x20000000, Type = 0xFFFFFFF2)  returns 0x0000000D (0000ms, 0807ms total)
T2744 001:484 JLINK_Go() -- CPU_ReadMem(4 bytes @ 0xE0001000) (0002ms, 0809ms total)
T2744 001:486 JLINK_IsHalted()  returns FALSE (0001ms, 0810ms total)
T2744 001:489 JLINK_IsHalted()  returns FALSE (0000ms, 0809ms total)
T2744 001:491 JLINK_IsHalted()  returns FALSE (0000ms, 0809ms total)
T2744 001:493 JLINK_IsHalted()  returns FALSE (0000ms, 0809ms total)
T2744 001:518 JLINK_IsHalted() -- CPU_ReadMem(2 bytes @ 0x20000000)  returns TRUE (0004ms, 0813ms total)
T2744 001:522 JLINK_ReadReg(R15 (PC))  returns 0x20000000 (0000ms, 0809ms total)
T2744 001:522 JLINK_ClrBPEx(BPHandle = 0x0000000D)  returns 0x00 (0000ms, 0809ms total)
T2744 001:522 JLINK_ReadReg(R0)  returns 0x00000000 (0000ms, 0809ms total)
T2744 001:527 JLINK_WriteMem(0x20000164, 0x0400 Bytes, ...) - Data: 15 F9 1D 4A 1D 4B CD E9 00 01 08 F0 5F F9 82 46 ... -- CPU_WriteMem(1024 bytes @ 0x20000164)  returns 0x400 (0012ms, 0821ms total)
T2744 001:539 JLINK_WriteReg(R0, 0x08002400)  returns 0x00 (0000ms, 0821ms total)
T2744 001:539 JLINK_WriteReg(R1, 0x00000400)  returns 0x00 (0000ms, 0821ms total)
T2744 001:539 JLINK_WriteReg(R2, 0x20000164)  returns 0x00 (0000ms, 0821ms total)
T2744 001:539 JLINK_WriteReg(R3, 0x00000000)  returns 0x00 (0000ms, 0821ms total)
T2744 001:539 JLINK_WriteReg(R4, 0x00000000)  returns 0x00 (0000ms, 0821ms total)
T2744 001:539 JLINK_WriteReg(R5, 0x00000000)  returns 0x00 (0000ms, 0821ms total)
T2744 001:539 JLINK_WriteReg(R6, 0x00000000)  returns 0x00 (0001ms, 0822ms total)
T2744 001:540 JLINK_WriteReg(R7, 0x00000000)  returns 0x00 (0000ms, 0822ms total)
T2744 001:540 JLINK_WriteReg(R8, 0x00000000)  returns 0x00 (0000ms, 0822ms total)
T2744 001:540 JLINK_WriteReg(R9, 0x20000160)  returns 0x00 (0000ms, 0822ms total)
T2744 001:540 JLINK_WriteReg(R10, 0x00000000)  returns 0x00 (0000ms, 0822ms total)
T2744 001:540 JLINK_WriteReg(R11, 0x00000000)  returns 0x00 (0000ms, 0822ms total)
T2744 001:540 JLINK_WriteReg(R12, 0x00000000)  returns 0x00 (0000ms, 0822ms total)
T2744 001:540 JLINK_WriteReg(R13 (SP), 0x20001000)  returns 0x00 (0000ms, 0822ms total)
T2744 001:540 JLINK_WriteReg(R14, 0x20000001)  returns 0x00 (0000ms, 0822ms total)
T2744 001:540 JLINK_WriteReg(R15 (PC), 0x200000F4)  returns 0x00 (0000ms, 0822ms total)
T2744 001:540 JLINK_WriteReg(XPSR, 0x01000000)  returns 0x00 (0000ms, 0822ms total)
T2744 001:540 JLINK_WriteReg(MSP, 0x20001000)  returns 0x00 (0000ms, 0822ms total)
T2744 001:540 JLINK_WriteReg(PSP, 0x20001000)  returns 0x00 (0000ms, 0822ms total)
T2744 001:540 JLINK_WriteReg(CFBP, 0x00000000)  returns 0x00 (0000ms, 0822ms total)
T2744 001:540 JLINK_SetBPEx(Addr = 0x20000000, Type = 0xFFFFFFF2)  returns 0x0000000E (0000ms, 0822ms total)
T2744 001:540 JLINK_Go() -- CPU_ReadMem(4 bytes @ 0xE0001000) (0003ms, 0825ms total)
T2744 001:543 JLINK_IsHalted()  returns FALSE (0000ms, 0825ms total)
T2744 001:585 JLINK_IsHalted() -- CPU_ReadMem(2 bytes @ 0x20000000)  returns TRUE (0003ms, 0828ms total)
T2744 001:588 JLINK_ReadReg(R15 (PC))  returns 0x20000000 (0000ms, 0825ms total)
T2744 001:588 JLINK_ClrBPEx(BPHandle = 0x0000000E)  returns 0x00 (0000ms, 0825ms total)
T2744 001:588 JLINK_ReadReg(R0)  returns 0x00000000 (0000ms, 0825ms total)
T2744 001:589 JLINK_WriteMem(0x20000164, 0x0400 Bytes, ...) - Data: 08 01 08 F0 89 F9 4F F0 33 32 2B 4B CD E9 0A 01 ... -- CPU_WriteMem(1024 bytes @ 0x20000164)  returns 0x400 (0012ms, 0837ms total)
T2744 001:602 JLINK_WriteReg(R0, 0x08002800)  returns 0x00 (0000ms, 0837ms total)
T2744 001:602 JLINK_WriteReg(R1, 0x00000400)  returns 0x00 (0000ms, 0837ms total)
T2744 001:602 JLINK_WriteReg(R2, 0x20000164)  returns 0x00 (0000ms, 0837ms total)
T2744 001:602 JLINK_WriteReg(R3, 0x00000000)  returns 0x00 (0000ms, 0837ms total)
T2744 001:602 JLINK_WriteReg(R4, 0x00000000)  returns 0x00 (0000ms, 0837ms total)
T2744 001:602 JLINK_WriteReg(R5, 0x00000000)  returns 0x00 (0000ms, 0837ms total)
T2744 001:602 JLINK_WriteReg(R6, 0x00000000)  returns 0x00 (0000ms, 0837ms total)
T2744 001:602 JLINK_WriteReg(R7, 0x00000000)  returns 0x00 (0000ms, 0837ms total)
T2744 001:602 JLINK_WriteReg(R8, 0x00000000)  returns 0x00 (0000ms, 0837ms total)
T2744 001:602 JLINK_WriteReg(R9, 0x20000160)  returns 0x00 (0000ms, 0837ms total)
T2744 001:602 JLINK_WriteReg(R10, 0x00000000)  returns 0x00 (0000ms, 0837ms total)
T2744 001:602 JLINK_WriteReg(R11, 0x00000000)  returns 0x00 (0000ms, 0837ms total)
T2744 001:602 JLINK_WriteReg(R12, 0x00000000)  returns 0x00 (0000ms, 0837ms total)
T2744 001:602 JLINK_WriteReg(R13 (SP), 0x20001000)  returns 0x00 (0000ms, 0837ms total)
T2744 001:602 JLINK_WriteReg(R14, 0x20000001)  returns 0x00 (0000ms, 0837ms total)
T2744 001:602 JLINK_WriteReg(R15 (PC), 0x200000F4)  returns 0x00 (0000ms, 0837ms total)
T2744 001:602 JLINK_WriteReg(XPSR, 0x01000000)  returns 0x00 (0000ms, 0837ms total)
T2744 001:602 JLINK_WriteReg(MSP, 0x20001000)  returns 0x00 (0000ms, 0837ms total)
T2744 001:602 JLINK_WriteReg(PSP, 0x20001000)  returns 0x00 (0000ms, 0837ms total)
T2744 001:602 JLINK_WriteReg(CFBP, 0x00000000)  returns 0x00 (0000ms, 0837ms total)
T2744 001:602 JLINK_SetBPEx(Addr = 0x20000000, Type = 0xFFFFFFF2)  returns 0x0000000F (0000ms, 0837ms total)
T2744 001:602 JLINK_Go() -- CPU_ReadMem(4 bytes @ 0xE0001000) (0003ms, 0840ms total)
T2744 001:605 JLINK_IsHalted()  returns FALSE (0000ms, 0840ms total)
T2744 001:610 JLINK_IsHalted()  returns FALSE (0000ms, 0840ms total)
T2744 001:612 JLINK_IsHalted()  returns FALSE (0000ms, 0840ms total)
T2744 001:614 JLINK_IsHalted()  returns FALSE (0000ms, 0840ms total)
T2744 001:616 JLINK_IsHalted()  returns FALSE (0000ms, 0840ms total)
T2744 001:620 JLINK_IsHalted()  returns FALSE (0000ms, 0840ms total)
T2744 001:622 JLINK_IsHalted()  returns FALSE (0000ms, 0840ms total)
T2744 001:624 JLINK_IsHalted()  returns FALSE (0000ms, 0840ms total)
T2744 001:626 JLINK_IsHalted()  returns FALSE (0000ms, 0840ms total)
T2744 001:628 JLINK_IsHalted()  returns FALSE (0000ms, 0840ms total)
T2744 001:630 JLINK_IsHalted()  returns FALSE (0000ms, 0840ms total)
T2744 001:632 JLINK_IsHalted()  returns FALSE (0000ms, 0840ms total)
T2744 001:634 JLINK_IsHalted()  returns FALSE (0000ms, 0840ms total)
T2744 001:636 JLINK_IsHalted() -- CPU_ReadMem(2 bytes @ 0x20000000)  returns TRUE (0003ms, 0843ms total)
T2744 001:639 JLINK_ReadReg(R15 (PC))  returns 0x20000000 (0000ms, 0840ms total)
T2744 001:639 JLINK_ClrBPEx(BPHandle = 0x0000000F)  returns 0x00 (0000ms, 0840ms total)
T2744 001:639 JLINK_ReadReg(R0)  returns 0x00000000 (0000ms, 0840ms total)
T2744 001:640 JLINK_WriteMem(0x20000164, 0x0400 Bytes, ...) - Data: 01 20 9E 49 08 60 00 20 08 60 9E 49 08 70 80 20 ... -- CPU_WriteMem(1024 bytes @ 0x20000164)  returns 0x400 (0012ms, 0852ms total)
T2744 001:652 JLINK_WriteReg(R0, 0x08002C00)  returns 0x00 (0000ms, 0852ms total)
T2744 001:652 JLINK_WriteReg(R1, 0x00000400)  returns 0x00 (0000ms, 0852ms total)
T2744 001:652 JLINK_WriteReg(R2, 0x20000164)  returns 0x00 (0000ms, 0852ms total)
T2744 001:652 JLINK_WriteReg(R3, 0x00000000)  returns 0x00 (0000ms, 0852ms total)
T2744 001:652 JLINK_WriteReg(R4, 0x00000000)  returns 0x00 (0000ms, 0852ms total)
T2744 001:652 JLINK_WriteReg(R5, 0x00000000)  returns 0x00 (0001ms, 0853ms total)
T2744 001:653 JLINK_WriteReg(R6, 0x00000000)  returns 0x00 (0000ms, 0853ms total)
T2744 001:653 JLINK_WriteReg(R7, 0x00000000)  returns 0x00 (0000ms, 0853ms total)
T2744 001:653 JLINK_WriteReg(R8, 0x00000000)  returns 0x00 (0000ms, 0853ms total)
T2744 001:653 JLINK_WriteReg(R9, 0x20000160)  returns 0x00 (0000ms, 0853ms total)
T2744 001:653 JLINK_WriteReg(R10, 0x00000000)  returns 0x00 (0000ms, 0853ms total)
T2744 001:653 JLINK_WriteReg(R11, 0x00000000)  returns 0x00 (0000ms, 0853ms total)
T2744 001:653 JLINK_WriteReg(R12, 0x00000000)  returns 0x00 (0000ms, 0853ms total)
T2744 001:653 JLINK_WriteReg(R13 (SP), 0x20001000)  returns 0x00 (0000ms, 0853ms total)
T2744 001:653 JLINK_WriteReg(R14, 0x20000001)  returns 0x00 (0000ms, 0853ms total)
T2744 001:653 JLINK_WriteReg(R15 (PC), 0x200000F4)  returns 0x00 (0000ms, 0853ms total)
T2744 001:653 JLINK_WriteReg(XPSR, 0x01000000)  returns 0x00 (0000ms, 0853ms total)
T2744 001:653 JLINK_WriteReg(MSP, 0x20001000)  returns 0x00 (0000ms, 0853ms total)
T2744 001:653 JLINK_WriteReg(PSP, 0x20001000)  returns 0x00 (0000ms, 0853ms total)
T2744 001:653 JLINK_WriteReg(CFBP, 0x00000000)  returns 0x00 (0000ms, 0853ms total)
T2744 001:653 JLINK_SetBPEx(Addr = 0x20000000, Type = 0xFFFFFFF2)  returns 0x00000010 (0000ms, 0853ms total)
T2744 001:653 JLINK_Go() -- CPU_ReadMem(4 bytes @ 0xE0001000) (0002ms, 0855ms total)
T2744 001:655 JLINK_IsHalted()  returns FALSE (0001ms, 0856ms total)
T2744 001:675 JLINK_IsHalted()  returns FALSE (0000ms, 0855ms total)
